
T068C 000:056 SEGGER J-Link V4.62 Log File (0000ms, 0056ms total)
T068C 000:056 DLL Compiled: Jan 25 2013 15:19:47 (0000ms, 0056ms total)
T068C 000:056 Logging started @ 2013-11-02 19:44 (0000ms, 0056ms total)
T068C 000:056 JLINK_SetWarnOutHandler(...) (0000ms, 0056ms total)
T068C 000:056 JLINK_OpenEx(...)
Firmware: J-Link OB-SAM3U128 V1 compiled Aug 27 2013 15:22:27
Hardware: V1.00
S/N: 480201486  returns O.K. (0031ms, 0087ms total)
T068C 000:087 JLINK_SetErrorOutHandler(...) (0000ms, 0087ms total)
T068C 000:087 JLINK_ExecCommand("ProjectFile = "C:\Users\travis\Code\otolith_senior\nrf51822\Board\pca10001\ble\otolith\arm\JLinkSettings.ini"", ...)  returns 0x00 (0000ms, 0087ms total)
T068C 000:090 JLINK_ExecCommand("Device = nRF51822", ...)
                JLINK_ExecCommand("map ram 0x20000000 - 0x20001FFF", ...)  returns 0x00 (0000ms, 0000ms total)
                JLINK_AddMirrorAreaEx(Addr = 0x00000000, Size = 0x00000000) (0000ms, 0000ms total)
              Device "NRF51822" selected (256 KB flash, 8 KB RAM).  returns 0x00 (0004ms, 0091ms total)
T068C 000:094 JLINK_ExecCommand("DisableConnectionTimeout", ...)  returns 0x00 (0000ms, 0091ms total)
T068C 000:094 JLINK_TIF_Select(JLINKARM_TIF_SWD)  returns 0x00 (0007ms, 0098ms total)
T068C 000:101 JLINK_SetSpeed(1000) (0002ms, 0100ms total)
T068C 000:103 JLINK_GetHardwareVersion()  returns 0x2710 (0000ms, 0100ms total)
T068C 000:103 JLINK_GetDLLVersion()  returns 46200 (0000ms, 0100ms total)
T068C 000:103 JLINK_GetFirmwareString(...) (0000ms, 0100ms total)
T068C 000:109 JLINK_GetDLLVersion()  returns 46200 (0000ms, 0100ms total)
T068C 000:109 JLINK_GetCompileDateTime() (0000ms, 0100ms total)
T068C 000:113 JLINK_GetFirmwareString(...) (0000ms, 0100ms total)
T068C 000:115 JLINK_GetHardwareVersion()  returns 0x2710 (0000ms, 0100ms total)
T068C 000:124 JLINK_GetId() >0x108 TIF>Found SWD-DP with ID 0x0BB11477 >0x35 TIF> >0x0D TIF> >0x28 TIF> >0x0D TIF> >0x28 TIF> >0x35 TIF> >0x35 TIF> >0x0D TIF> >0x28 TIF> >0x35 TIF> >0x35 TIF> >0x35 TIF> >0x35 TIF> >0x0D TIF> >0x28 TIF> >0x0D TIF> >0x28 TIF> >0x0D TIF> >0x28 TIF> >0x35 TIF> >0x35 TIF> >0x35 TIF> >0x0D TIF> >0x28 TIF> >0x0D TIF> >0x28 TIF> >0x35 TIF> >0x35 TIF> >0x0D TIF> >0x28 TIF> >0x35 TIF> >0x35 TIF> >0x0D TIF> >0x28 TIF> >0x0D TIF> >0x28 TIF> >0x0D TIF> >0x28 TIF> >0x35 TIF>
 >0x35 TIF> >0x0D TIF> >0x28 TIF> >0x0D TIF> >0x28 TIF> >0x0D TIF> >0x28 TIF> >0x0D TIF> >0x28 TIF> >0x0D TIF> >0x28 TIF> >0x35 TIF> >0x35 TIF> >0x35 TIF> >0x0D TIF> >0x28 TIF> >0x35 TIF> >0x35 TIF> >0x0D TIF> >0x28 TIF> >0x35 TIF> >0x35 TIF>FPUnit: 4 code (BP) slots and 0 literal slots >0x0D TIF> >0x28 TIF> >0x35 TIF> >0x35 TIF> >0x0D TIF> >0x28 TIF> >0x0D TIF> >0x28 TIF> >0x0D TIF> >0x28 TIF> >0x35 TIF> >0x35 TIF> >0x0D TIF> >0x28 TIF> >0x35 TIF> >0x35 TIF> >0x0D TIF> >0x28 TIF> >0x35 TIF> >0x35 TIF>
Found Cortex-M0 r0p0, Little endian. >0x35 TIF>  returns 0x0BB11477 (0112ms, 0212ms total)
T068C 000:236 JLINK_GetDeviceFamily()  returns 6 (0000ms, 0212ms total)
T068C 000:238 JLINK_ReadMem (0xE00FFFF0, 0x0010 Bytes, ...) -- CPU is running -- CPU_ReadMem(16 bytes @ 0xE00FFFF0) -- Data:  0D 00 00 00 10 00 00 00 05 00 00 00 B1 00 00 00  returns 0x00 (0003ms, 0215ms total)
T068C 000:241 JLINK_ReadMem (0xE00FFFD0, 0x0020 Bytes, ...) -- CPU is running -- CPU_ReadMem(32 bytes @ 0xE00FFFD0) -- Data:  04 00 00 00 00 00 00 00 00 00 00 00 00 00 00 00 ...  returns 0x00 (0002ms, 0217ms total)
T068C 000:243 JLINK_ReadMem (0xE00FF000, 0x0018 Bytes, ...) -- CPU is running -- CPU_ReadMem(24 bytes @ 0xE00FF000) -- Data:  03 F0 F0 FF 03 20 F0 FF 03 30 F0 FF 00 00 00 00 ...  returns 0x00 (0002ms, 0219ms total)
T068C 000:245 JLINK_ReadMemU32(0xE000ED00, 0x0001 Items, ...) -- CPU is running -- CPU_ReadMem(4 bytes @ 0xE000ED00) -- Data:  00 C2 0C 41  returns 0x01 (0002ms, 0221ms total)
T068C 000:247 JLINK_SetResetType(JLINKARM_RESET_TYPE_NORMAL)  returns JLINKARM_RESET_TYPE_NORMAL (0000ms, 0221ms total)
T068C 000:247 JLINK_Reset() -- CPU is running -- CPU_WriteMem(4 bytes @ 0xE000EDF0) -- CPU is running -- CPU_WriteMem(4 bytes @ 0xE000EDFC) >0x35 TIF> -- CPU is running -- CPU_WriteMem(4 bytes @ 0xE000ED0C) -- CPU is running -- CPU_ReadMem(4 bytes @ 0xE000EDF0) -- CPU is running -- CPU_ReadMem(4 bytes @ 0xE000EDF0) -- CPU is running -- CPU_WriteMem(4 bytes @ 0xE000EDF0) -- CPU is running -- CPU_WriteMem(4 bytes @ 0xE000EDFC) -- CPU is running -- CPU_ReadMem(4 bytes @ 0xE000EDF0)
 -- CPU_WriteMem(4 bytes @ 0xE0002000) (0027ms, 0248ms total)
T068C 000:274 JLINK_Halt()  returns 0x00 (0000ms, 0248ms total)
T068C 000:274 JLINK_IsHalted() -- MA0 is in flash -- Unmirror addr 0x00011310  returns TRUE (0000ms, 0248ms total)
T068C 000:274 JLINK_ReadMemU32(0xE000EDF0, 0x0001 Items, ...) -- CPU_ReadMem(4 bytes @ 0xE000EDF0) -- Data:  03 00 03 00  returns 0x01 (0001ms, 0249ms total)
T068C 000:275 JLINK_WriteU32(0xE000EDF0, 0xA05F0003) -- CPU_WriteMem(4 bytes @ 0xE000EDF0) -- Invalidate MA0 status  returns 0x00 (0001ms, 0250ms total)
T068C 000:276 JLINK_WriteU32(0xE000EDFC, 0x01000000) -- CPU_WriteMem(4 bytes @ 0xE000EDFC)  returns 0x00 (0001ms, 0251ms total)
T068C 000:287 JLINK_GetHWStatus(...)  returns 0x00 (0001ms, 0252ms total)
T068C 000:294 JLINK_GetNumBPUnits(Type = 0xFFFFFF00)  returns 0x04 (0000ms, 0252ms total)
T068C 000:294 JLINK_GetNumBPUnits(Type = 0xF0)  returns 0x2000 (0001ms, 0253ms total)
T068C 000:295 JLINK_GetNumWPUnits()  returns 0x02 (0000ms, 0253ms total)
T068C 000:301 JLINK_GetSpeed()  returns 0x3E8 (0000ms, 0253ms total)
T068C 000:305 JLINK_ReadMemU32(0xE000E004, 0x0001 Items, ...) -- CPU_ReadMem(4 bytes @ 0xE000E004) -- Data:  00 00 00 00  returns 0x01 (0002ms, 0255ms total)
T068C 000:307 JLINK_Halt()  returns 0x00 (0000ms, 0255ms total)
T068C 000:307 JLINK_IsHalted() -- MA0 is in flash -- Unmirror addr 0x00011310  returns TRUE (0000ms, 0255ms total)
T068C 000:311 JLINK_WriteMem(0x20000000, 0x0274 Bytes, ...) -- Data:  00 BE 0A E0 0D 78 2D 06 68 40 08 24 40 00 00 D3 ... -- CPU_WriteMem(628 bytes @ 0x20000000)  returns 0x274 (0010ms, 0265ms total)
T068C 000:321 JLINK_WriteReg(R0, 0x00000000)  returns 0x00 (0000ms, 0265ms total)
T068C 000:321 JLINK_WriteReg(R1, 0x00F42400)  returns 0x00 (0000ms, 0265ms total)
T068C 000:321 JLINK_WriteReg(R2, 0x00000001)  returns 0x00 (0000ms, 0265ms total)
T068C 000:321 JLINK_WriteReg(R3, 0x00000000)  returns 0x00 (0000ms, 0265ms total)
T068C 000:321 JLINK_WriteReg(R4, 0x00000000)  returns 0x00 (0000ms, 0265ms total)
T068C 000:321 JLINK_WriteReg(R5, 0x00000000)  returns 0x00 (0000ms, 0265ms total)
T068C 000:321 JLINK_WriteReg(R6, 0x00000000)  returns 0x00 (0000ms, 0265ms total)
T068C 000:321 JLINK_WriteReg(R7, 0x00000000)  returns 0x00 (0000ms, 0265ms total)
T068C 000:321 JLINK_WriteReg(R8, 0x00000000)  returns 0x00 (0000ms, 0265ms total)
T068C 000:321 JLINK_WriteReg(R9, 0x20000270)  returns 0x00 (0000ms, 0265ms total)
T068C 000:321 JLINK_WriteReg(R10, 0x00000000)  returns 0x00 (0000ms, 0265ms total)
T068C 000:321 JLINK_WriteReg(R11, 0x00000000)  returns 0x00 (0000ms, 0265ms total)
T068C 000:321 JLINK_WriteReg(R12, 0x00000000)  returns 0x00 (0000ms, 0265ms total)
T068C 000:321 JLINK_WriteReg(R13, 0x20000800)  returns 0x00 (0000ms, 0265ms total)
T068C 000:321 JLINK_WriteReg(R14, 0x20000001)  returns 0x00 (0000ms, 0265ms total)
T068C 000:321 JLINK_WriteReg(R15, 0x20000028)  returns 0x00 (0000ms, 0265ms total)
T068C 000:321 JLINK_WriteReg(XPSR, 0x01000000)  returns 0x00 (0000ms, 0265ms total)
T068C 000:321 JLINK_WriteReg(MSP, 0x20000800)  returns 0x00 (0000ms, 0265ms total)
T068C 000:321 JLINK_WriteReg(PSP, 0x20000800)  returns 0x00 (0000ms, 0265ms total)
T068C 000:321 JLINK_WriteReg(CFBP, 0x00000000)  returns 0x00 (0000ms, 0265ms total)
T068C 000:321 JLINK_SetBPEx(Addr = 0x20000000, Type = 0xFFFFFFF2) -- CPU_ReadMem(2 bytes @ 0x20000000)  returns 0x00000001 (0002ms, 0267ms total)
T068C 000:323 JLINK_Go() -- CPU_WriteMem(2 bytes @ 0x20000000) -- Invalidate MA0 status -- CPU_WriteMem(4 bytes @ 0xE0002008) -- CPU_WriteMem(4 bytes @ 0xE000200C) -- CPU_WriteMem(4 bytes @ 0xE0002010) -- CPU_WriteMem(4 bytes @ 0xE0002014) (0012ms, 0279ms total)
T068C 000:335 JLINK_IsHalted() -- CPU_ReadMem(2 bytes @ 0x20000000)  returns TRUE (0007ms, 0286ms total)
T068C 000:342 JLINK_ReadReg(R15)  returns 0x20000000 (0000ms, 0279ms total)
T068C 000:342 JLINK_ClrBPEx(BPHandle = 0x00000001)  returns 0x00 (0000ms, 0279ms total)
T068C 000:342 JLINK_ReadReg(R0)  returns 0x00000000 (0000ms, 0279ms total)
T068C 000:342 JLINK_WriteReg(R0, 0x00014000)  returns 0x00 (0000ms, 0279ms total)
T068C 000:342 JLINK_WriteReg(R1, 0x00000400)  returns 0x00 (0000ms, 0279ms total)
T068C 000:342 JLINK_WriteReg(R2, 0x000000FF)  returns 0x00 (0000ms, 0279ms total)
T068C 000:342 JLINK_WriteReg(R3, 0x00000000)  returns 0x00 (0000ms, 0279ms total)
T068C 000:342 JLINK_WriteReg(R4, 0x00000000)  returns 0x00 (0000ms, 0279ms total)
T068C 000:342 JLINK_WriteReg(R5, 0x00000000)  returns 0x00 (0000ms, 0279ms total)
T068C 000:342 JLINK_WriteReg(R6, 0x00000000)  returns 0x00 (0000ms, 0279ms total)
T068C 000:342 JLINK_WriteReg(R7, 0x00000000)  returns 0x00 (0000ms, 0279ms total)
T068C 000:342 JLINK_WriteReg(R8, 0x00000000)  returns 0x00 (0000ms, 0279ms total)
T068C 000:342 JLINK_WriteReg(R9, 0x20000270)  returns 0x00 (0000ms, 0279ms total)
T068C 000:342 JLINK_WriteReg(R10, 0x00000000)  returns 0x00 (0000ms, 0279ms total)
T068C 000:342 JLINK_WriteReg(R11, 0x00000000)  returns 0x00 (0000ms, 0279ms total)
T068C 000:342 JLINK_WriteReg(R12, 0x00000000)  returns 0x00 (0000ms, 0279ms total)
T068C 000:342 JLINK_WriteReg(R13, 0x20000800)  returns 0x00 (0000ms, 0279ms total)
T068C 000:342 JLINK_WriteReg(R14, 0x20000001)  returns 0x00 (0000ms, 0279ms total)
T068C 000:342 JLINK_WriteReg(R15, 0x20000204)  returns 0x00 (0000ms, 0279ms total)
T068C 000:342 JLINK_WriteReg(XPSR, 0x01000000)  returns 0x00 (0000ms, 0279ms total)
T068C 000:342 JLINK_WriteReg(MSP, 0x20000800)  returns 0x00 (0000ms, 0279ms total)
T068C 000:342 JLINK_WriteReg(PSP, 0x20000800)  returns 0x00 (0000ms, 0279ms total)
T068C 000:342 JLINK_WriteReg(CFBP, 0x00000000)  returns 0x00 (0000ms, 0279ms total)
T068C 000:342 JLINK_SetBPEx(Addr = 0x20000000, Type = 0xFFFFFFF2)  returns 0x00000002 (0000ms, 0279ms total)
T068C 000:342 JLINK_Go() (0005ms, 0284ms total)
T068C 000:347 JLINK_IsHalted() -- CPU_ReadMem(2 bytes @ 0x20000000)  returns TRUE (0008ms, 0292ms total)
T068C 000:355 JLINK_ReadReg(R15)  returns 0x20000000 (0000ms, 0284ms total)
T068C 000:355 JLINK_ClrBPEx(BPHandle = 0x00000002)  returns 0x00 (0000ms, 0284ms total)
T068C 000:355 JLINK_ReadReg(R0)  returns 0x00000001 (0000ms, 0284ms total)
T068C 000:355 JLINK_WriteReg(R0, 0x00014000)  returns 0x00 (0000ms, 0284ms total)
T068C 000:355 JLINK_WriteReg(R1, 0x00000400)  returns 0x00 (0000ms, 0284ms total)
T068C 000:355 JLINK_WriteReg(R2, 0x000000FF)  returns 0x00 (0000ms, 0284ms total)
T068C 000:355 JLINK_WriteReg(R3, 0x00000000)  returns 0x00 (0000ms, 0284ms total)
T068C 000:355 JLINK_WriteReg(R4, 0x00000000)  returns 0x00 (0000ms, 0284ms total)
T068C 000:355 JLINK_WriteReg(R5, 0x00000000)  returns 0x00 (0000ms, 0284ms total)
T068C 000:355 JLINK_WriteReg(R6, 0x00000000)  returns 0x00 (0000ms, 0284ms total)
T068C 000:355 JLINK_WriteReg(R7, 0x00000000)  returns 0x00 (0000ms, 0284ms total)
T068C 000:355 JLINK_WriteReg(R8, 0x00000000)  returns 0x00 (0000ms, 0284ms total)
T068C 000:355 JLINK_WriteReg(R9, 0x20000270)  returns 0x00 (0000ms, 0284ms total)
T068C 000:355 JLINK_WriteReg(R10, 0x00000000)  returns 0x00 (0000ms, 0284ms total)
T068C 000:355 JLINK_WriteReg(R11, 0x00000000)  returns 0x00 (0000ms, 0284ms total)
T068C 000:355 JLINK_WriteReg(R12, 0x00000000)  returns 0x00 (0000ms, 0284ms total)
T068C 000:355 JLINK_WriteReg(R13, 0x20000800)  returns 0x00 (0000ms, 0284ms total)
T068C 000:355 JLINK_WriteReg(R14, 0x20000001)  returns 0x00 (0000ms, 0284ms total)
T068C 000:355 JLINK_WriteReg(R15, 0x200000F8)  returns 0x00 (0000ms, 0284ms total)
T068C 000:355 JLINK_WriteReg(XPSR, 0x01000000)  returns 0x00 (0000ms, 0284ms total)
T068C 000:355 JLINK_WriteReg(MSP, 0x20000800)  returns 0x00 (0000ms, 0284ms total)
T068C 000:355 JLINK_WriteReg(PSP, 0x20000800)  returns 0x00 (0000ms, 0284ms total)
T068C 000:355 JLINK_WriteReg(CFBP, 0x00000000)  returns 0x00 (0000ms, 0284ms total)
T068C 000:355 JLINK_SetBPEx(Addr = 0x20000000, Type = 0xFFFFFFF2)  returns 0x00000003 (0000ms, 0284ms total)
T068C 000:355 JLINK_Go() (0005ms, 0289ms total)
T068C 000:360 JLINK_IsHalted()  returns FALSE (0002ms, 0291ms total)
T068C 000:414 JLINK_IsHalted() -- CPU_ReadMem(2 bytes @ 0x20000000)  returns TRUE (0009ms, 0298ms total)
T068C 000:423 JLINK_ReadReg(R15)  returns 0x20000000 (0000ms, 0289ms total)
T068C 000:423 JLINK_ClrBPEx(BPHandle = 0x00000003)  returns 0x00 (0000ms, 0289ms total)
T068C 000:423 JLINK_ReadReg(R0)  returns 0x00000000 (0000ms, 0289ms total)
T068C 000:423 JLINK_WriteReg(R0, 0x00014400)  returns 0x00 (0000ms, 0289ms total)
T068C 000:423 JLINK_WriteReg(R1, 0x00000400)  returns 0x00 (0000ms, 0289ms total)
T068C 000:423 JLINK_WriteReg(R2, 0x000000FF)  returns 0x00 (0000ms, 0289ms total)
T068C 000:423 JLINK_WriteReg(R3, 0x00000000)  returns 0x00 (0000ms, 0289ms total)
T068C 000:423 JLINK_WriteReg(R4, 0x00000000)  returns 0x00 (0000ms, 0289ms total)
T068C 000:423 JLINK_WriteReg(R5, 0x00000000)  returns 0x00 (0000ms, 0289ms total)
T068C 000:423 JLINK_WriteReg(R6, 0x00000000)  returns 0x00 (0000ms, 0289ms total)
T068C 000:423 JLINK_WriteReg(R7, 0x00000000)  returns 0x00 (0001ms, 0290ms total)
T068C 000:424 JLINK_WriteReg(R8, 0x00000000)  returns 0x00 (0000ms, 0290ms total)
T068C 000:424 JLINK_WriteReg(R9, 0x20000270)  returns 0x00 (0000ms, 0290ms total)
T068C 000:424 JLINK_WriteReg(R10, 0x00000000)  returns 0x00 (0000ms, 0290ms total)
T068C 000:424 JLINK_WriteReg(R11, 0x00000000)  returns 0x00 (0000ms, 0290ms total)
T068C 000:424 JLINK_WriteReg(R12, 0x00000000)  returns 0x00 (0000ms, 0290ms total)
T068C 000:424 JLINK_WriteReg(R13, 0x20000800)  returns 0x00 (0000ms, 0290ms total)
T068C 000:424 JLINK_WriteReg(R14, 0x20000001)  returns 0x00 (0000ms, 0290ms total)
T068C 000:424 JLINK_WriteReg(R15, 0x20000204)  returns 0x00 (0000ms, 0290ms total)
T068C 000:424 JLINK_WriteReg(XPSR, 0x01000000)  returns 0x00 (0000ms, 0290ms total)
T068C 000:424 JLINK_WriteReg(MSP, 0x20000800)  returns 0x00 (0000ms, 0290ms total)
T068C 000:424 JLINK_WriteReg(PSP, 0x20000800)  returns 0x00 (0000ms, 0290ms total)
T068C 000:424 JLINK_WriteReg(CFBP, 0x00000000)  returns 0x00 (0000ms, 0290ms total)
T068C 000:424 JLINK_SetBPEx(Addr = 0x20000000, Type = 0xFFFFFFF2)  returns 0x00000004 (0000ms, 0290ms total)
T068C 000:424 JLINK_Go() (0005ms, 0295ms total)
T068C 000:429 JLINK_IsHalted() -- CPU_ReadMem(2 bytes @ 0x20000000)  returns TRUE (0008ms, 0303ms total)
T068C 000:437 JLINK_ReadReg(R15)  returns 0x20000000 (0000ms, 0295ms total)
T068C 000:437 JLINK_ClrBPEx(BPHandle = 0x00000004)  returns 0x00 (0000ms, 0295ms total)
T068C 000:437 JLINK_ReadReg(R0)  returns 0x00000001 (0000ms, 0295ms total)
T068C 000:437 JLINK_WriteReg(R0, 0x00014400)  returns 0x00 (0000ms, 0295ms total)
T068C 000:437 JLINK_WriteReg(R1, 0x00000400)  returns 0x00 (0000ms, 0295ms total)
T068C 000:437 JLINK_WriteReg(R2, 0x000000FF)  returns 0x00 (0000ms, 0295ms total)
T068C 000:437 JLINK_WriteReg(R3, 0x00000000)  returns 0x00 (0000ms, 0295ms total)
T068C 000:437 JLINK_WriteReg(R4, 0x00000000)  returns 0x00 (0000ms, 0295ms total)
T068C 000:437 JLINK_WriteReg(R5, 0x00000000)  returns 0x00 (0000ms, 0295ms total)
T068C 000:437 JLINK_WriteReg(R6, 0x00000000)  returns 0x00 (0000ms, 0295ms total)
T068C 000:437 JLINK_WriteReg(R7, 0x00000000)  returns 0x00 (0000ms, 0295ms total)
T068C 000:437 JLINK_WriteReg(R8, 0x00000000)  returns 0x00 (0000ms, 0295ms total)
T068C 000:437 JLINK_WriteReg(R9, 0x20000270)  returns 0x00 (0000ms, 0295ms total)
T068C 000:437 JLINK_WriteReg(R10, 0x00000000)  returns 0x00 (0000ms, 0295ms total)
T068C 000:437 JLINK_WriteReg(R11, 0x00000000)  returns 0x00 (0000ms, 0295ms total)
T068C 000:437 JLINK_WriteReg(R12, 0x00000000)  returns 0x00 (0000ms, 0295ms total)
T068C 000:437 JLINK_WriteReg(R13, 0x20000800)  returns 0x00 (0000ms, 0295ms total)
T068C 000:437 JLINK_WriteReg(R14, 0x20000001)  returns 0x00 (0000ms, 0295ms total)
T068C 000:437 JLINK_WriteReg(R15, 0x200000F8)  returns 0x00 (0001ms, 0296ms total)
T068C 000:438 JLINK_WriteReg(XPSR, 0x01000000)  returns 0x00 (0000ms, 0296ms total)
T068C 000:438 JLINK_WriteReg(MSP, 0x20000800)  returns 0x00 (0000ms, 0296ms total)
T068C 000:438 JLINK_WriteReg(PSP, 0x20000800)  returns 0x00 (0000ms, 0296ms total)
T068C 000:438 JLINK_WriteReg(CFBP, 0x00000000)  returns 0x00 (0000ms, 0296ms total)
T068C 000:438 JLINK_SetBPEx(Addr = 0x20000000, Type = 0xFFFFFFF2)  returns 0x00000005 (0000ms, 0296ms total)
T068C 000:438 JLINK_Go() (0004ms, 0300ms total)
T068C 000:442 JLINK_IsHalted()  returns FALSE (0001ms, 0301ms total)
T068C 000:466 JLINK_IsHalted() -- CPU_ReadMem(2 bytes @ 0x20000000)  returns TRUE (0007ms, 0307ms total)
T068C 000:473 JLINK_ReadReg(R15)  returns 0x20000000 (0000ms, 0300ms total)
T068C 000:473 JLINK_ClrBPEx(BPHandle = 0x00000005)  returns 0x00 (0000ms, 0300ms total)
T068C 000:473 JLINK_ReadReg(R0)  returns 0x00000000 (0000ms, 0300ms total)
T068C 000:473 JLINK_WriteReg(R0, 0x00014800)  returns 0x00 (0000ms, 0300ms total)
T068C 000:473 JLINK_WriteReg(R1, 0x00000400)  returns 0x00 (0000ms, 0300ms total)
T068C 000:473 JLINK_WriteReg(R2, 0x000000FF)  returns 0x00 (0000ms, 0300ms total)
T068C 000:473 JLINK_WriteReg(R3, 0x00000000)  returns 0x00 (0000ms, 0300ms total)
T068C 000:473 JLINK_WriteReg(R4, 0x00000000)  returns 0x00 (0000ms, 0300ms total)
T068C 000:473 JLINK_WriteReg(R5, 0x00000000)  returns 0x00 (0000ms, 0300ms total)
T068C 000:473 JLINK_WriteReg(R6, 0x00000000)  returns 0x00 (0000ms, 0300ms total)
T068C 000:473 JLINK_WriteReg(R7, 0x00000000)  returns 0x00 (0000ms, 0300ms total)
T068C 000:473 JLINK_WriteReg(R8, 0x00000000)  returns 0x00 (0000ms, 0300ms total)
T068C 000:473 JLINK_WriteReg(R9, 0x20000270)  returns 0x00 (0000ms, 0300ms total)
T068C 000:473 JLINK_WriteReg(R10, 0x00000000)  returns 0x00 (0000ms, 0300ms total)
T068C 000:473 JLINK_WriteReg(R11, 0x00000000)  returns 0x00 (0000ms, 0300ms total)
T068C 000:473 JLINK_WriteReg(R12, 0x00000000)  returns 0x00 (0000ms, 0300ms total)
T068C 000:473 JLINK_WriteReg(R13, 0x20000800)  returns 0x00 (0000ms, 0300ms total)
T068C 000:473 JLINK_WriteReg(R14, 0x20000001)  returns 0x00 (0000ms, 0300ms total)
T068C 000:473 JLINK_WriteReg(R15, 0x20000204)  returns 0x00 (0000ms, 0300ms total)
T068C 000:473 JLINK_WriteReg(XPSR, 0x01000000)  returns 0x00 (0000ms, 0300ms total)
T068C 000:473 JLINK_WriteReg(MSP, 0x20000800)  returns 0x00 (0000ms, 0300ms total)
T068C 000:473 JLINK_WriteReg(PSP, 0x20000800)  returns 0x00 (0000ms, 0300ms total)
T068C 000:473 JLINK_WriteReg(CFBP, 0x00000000)  returns 0x00 (0000ms, 0300ms total)
T068C 000:473 JLINK_SetBPEx(Addr = 0x20000000, Type = 0xFFFFFFF2)  returns 0x00000006 (0000ms, 0300ms total)
T068C 000:473 JLINK_Go() (0005ms, 0305ms total)
T068C 000:478 JLINK_IsHalted() -- CPU_ReadMem(2 bytes @ 0x20000000)  returns TRUE (0007ms, 0312ms total)
T068C 000:485 JLINK_ReadReg(R15)  returns 0x20000000 (0000ms, 0305ms total)
T068C 000:485 JLINK_ClrBPEx(BPHandle = 0x00000006)  returns 0x00 (0000ms, 0305ms total)
T068C 000:485 JLINK_ReadReg(R0)  returns 0x00000001 (0000ms, 0305ms total)
T068C 000:485 JLINK_WriteReg(R0, 0x00014800)  returns 0x00 (0000ms, 0305ms total)
T068C 000:485 JLINK_WriteReg(R1, 0x00000400)  returns 0x00 (0000ms, 0305ms total)
T068C 000:485 JLINK_WriteReg(R2, 0x000000FF)  returns 0x00 (0000ms, 0305ms total)
T068C 000:485 JLINK_WriteReg(R3, 0x00000000)  returns 0x00 (0000ms, 0305ms total)
T068C 000:485 JLINK_WriteReg(R4, 0x00000000)  returns 0x00 (0000ms, 0305ms total)
T068C 000:485 JLINK_WriteReg(R5, 0x00000000)  returns 0x00 (0000ms, 0305ms total)
T068C 000:485 JLINK_WriteReg(R6, 0x00000000)  returns 0x00 (0000ms, 0305ms total)
T068C 000:485 JLINK_WriteReg(R7, 0x00000000)  returns 0x00 (0000ms, 0305ms total)
T068C 000:485 JLINK_WriteReg(R8, 0x00000000)  returns 0x00 (0000ms, 0305ms total)
T068C 000:485 JLINK_WriteReg(R9, 0x20000270)  returns 0x00 (0000ms, 0305ms total)
T068C 000:485 JLINK_WriteReg(R10, 0x00000000)  returns 0x00 (0000ms, 0305ms total)
T068C 000:485 JLINK_WriteReg(R11, 0x00000000)  returns 0x00 (0000ms, 0305ms total)
T068C 000:485 JLINK_WriteReg(R12, 0x00000000)  returns 0x00 (0000ms, 0305ms total)
T068C 000:485 JLINK_WriteReg(R13, 0x20000800)  returns 0x00 (0000ms, 0305ms total)
T068C 000:485 JLINK_WriteReg(R14, 0x20000001)  returns 0x00 (0000ms, 0305ms total)
T068C 000:485 JLINK_WriteReg(R15, 0x200000F8)  returns 0x00 (0000ms, 0305ms total)
T068C 000:485 JLINK_WriteReg(XPSR, 0x01000000)  returns 0x00 (0000ms, 0305ms total)
T068C 000:485 JLINK_WriteReg(MSP, 0x20000800)  returns 0x00 (0000ms, 0305ms total)
T068C 000:485 JLINK_WriteReg(PSP, 0x20000800)  returns 0x00 (0000ms, 0305ms total)
T068C 000:485 JLINK_WriteReg(CFBP, 0x00000000)  returns 0x00 (0000ms, 0305ms total)
T068C 000:485 JLINK_SetBPEx(Addr = 0x20000000, Type = 0xFFFFFFF2)  returns 0x00000007 (0000ms, 0305ms total)
T068C 000:485 JLINK_Go() (0004ms, 0309ms total)
T068C 000:489 JLINK_IsHalted()  returns FALSE (0001ms, 0310ms total)
T068C 000:493 JLINK_IsHalted()  returns FALSE (0001ms, 0310ms total)
T068C 000:495 JLINK_IsHalted()  returns FALSE (0001ms, 0310ms total)
T068C 000:497 JLINK_IsHalted()  returns FALSE (0001ms, 0310ms total)
T068C 000:499 JLINK_IsHalted()  returns FALSE (0002ms, 0311ms total)
T068C 000:502 JLINK_IsHalted()  returns FALSE (0001ms, 0310ms total)
T068C 000:504 JLINK_IsHalted()  returns FALSE (0001ms, 0310ms total)
T068C 000:506 JLINK_IsHalted()  returns FALSE (0001ms, 0310ms total)
T068C 000:508 JLINK_IsHalted()  returns FALSE (0001ms, 0310ms total)
T068C 000:510 JLINK_IsHalted() -- CPU_ReadMem(2 bytes @ 0x20000000)  returns TRUE (0007ms, 0316ms total)
T068C 000:517 JLINK_ReadReg(R15)  returns 0x20000000 (0000ms, 0309ms total)
T068C 000:517 JLINK_ClrBPEx(BPHandle = 0x00000007)  returns 0x00 (0000ms, 0309ms total)
T068C 000:517 JLINK_ReadReg(R0)  returns 0x00000000 (0000ms, 0309ms total)
T068C 000:517 JLINK_WriteReg(R0, 0x00014C00)  returns 0x00 (0000ms, 0309ms total)
T068C 000:517 JLINK_WriteReg(R1, 0x00000400)  returns 0x00 (0000ms, 0309ms total)
T068C 000:517 JLINK_WriteReg(R2, 0x000000FF)  returns 0x00 (0000ms, 0309ms total)
T068C 000:517 JLINK_WriteReg(R3, 0x00000000)  returns 0x00 (0000ms, 0309ms total)
T068C 000:517 JLINK_WriteReg(R4, 0x00000000)  returns 0x00 (0000ms, 0309ms total)
T068C 000:517 JLINK_WriteReg(R5, 0x00000000)  returns 0x00 (0000ms, 0309ms total)
T068C 000:517 JLINK_WriteReg(R6, 0x00000000)  returns 0x00 (0000ms, 0309ms total)
T068C 000:517 JLINK_WriteReg(R7, 0x00000000)  returns 0x00 (0000ms, 0309ms total)
T068C 000:517 JLINK_WriteReg(R8, 0x00000000)  returns 0x00 (0000ms, 0309ms total)
T068C 000:517 JLINK_WriteReg(R9, 0x20000270)  returns 0x00 (0000ms, 0309ms total)
T068C 000:517 JLINK_WriteReg(R10, 0x00000000)  returns 0x00 (0000ms, 0309ms total)
T068C 000:517 JLINK_WriteReg(R11, 0x00000000)  returns 0x00 (0000ms, 0309ms total)
T068C 000:517 JLINK_WriteReg(R12, 0x00000000)  returns 0x00 (0000ms, 0309ms total)
T068C 000:517 JLINK_WriteReg(R13, 0x20000800)  returns 0x00 (0000ms, 0309ms total)
T068C 000:517 JLINK_WriteReg(R14, 0x20000001)  returns 0x00 (0000ms, 0309ms total)
T068C 000:517 JLINK_WriteReg(R15, 0x20000204)  returns 0x00 (0000ms, 0309ms total)
T068C 000:517 JLINK_WriteReg(XPSR, 0x01000000)  returns 0x00 (0000ms, 0309ms total)
T068C 000:517 JLINK_WriteReg(MSP, 0x20000800)  returns 0x00 (0000ms, 0309ms total)
T068C 000:517 JLINK_WriteReg(PSP, 0x20000800)  returns 0x00 (0000ms, 0309ms total)
T068C 000:517 JLINK_WriteReg(CFBP, 0x00000000)  returns 0x00 (0000ms, 0309ms total)
T068C 000:517 JLINK_SetBPEx(Addr = 0x20000000, Type = 0xFFFFFFF2)  returns 0x00000008 (0000ms, 0309ms total)
T068C 000:517 JLINK_Go() (0005ms, 0314ms total)
T068C 000:522 JLINK_IsHalted() -- CPU_ReadMem(2 bytes @ 0x20000000)  returns TRUE (0006ms, 0320ms total)
T068C 000:528 JLINK_ReadReg(R15)  returns 0x20000000 (0000ms, 0314ms total)
T068C 000:528 JLINK_ClrBPEx(BPHandle = 0x00000008)  returns 0x00 (0000ms, 0314ms total)
T068C 000:528 JLINK_ReadReg(R0)  returns 0x00000001 (0000ms, 0314ms total)
T068C 000:528 JLINK_WriteReg(R0, 0x00014C00)  returns 0x00 (0000ms, 0314ms total)
T068C 000:528 JLINK_WriteReg(R1, 0x00000400)  returns 0x00 (0000ms, 0314ms total)
T068C 000:528 JLINK_WriteReg(R2, 0x000000FF)  returns 0x00 (0000ms, 0314ms total)
T068C 000:528 JLINK_WriteReg(R3, 0x00000000)  returns 0x00 (0000ms, 0314ms total)
T068C 000:528 JLINK_WriteReg(R4, 0x00000000)  returns 0x00 (0000ms, 0314ms total)
T068C 000:528 JLINK_WriteReg(R5, 0x00000000)  returns 0x00 (0001ms, 0315ms total)
T068C 000:529 JLINK_WriteReg(R6, 0x00000000)  returns 0x00 (0000ms, 0315ms total)
T068C 000:529 JLINK_WriteReg(R7, 0x00000000)  returns 0x00 (0000ms, 0315ms total)
T068C 000:529 JLINK_WriteReg(R8, 0x00000000)  returns 0x00 (0000ms, 0315ms total)
T068C 000:529 JLINK_WriteReg(R9, 0x20000270)  returns 0x00 (0000ms, 0315ms total)
T068C 000:529 JLINK_WriteReg(R10, 0x00000000)  returns 0x00 (0000ms, 0315ms total)
T068C 000:529 JLINK_WriteReg(R11, 0x00000000)  returns 0x00 (0000ms, 0315ms total)
T068C 000:529 JLINK_WriteReg(R12, 0x00000000)  returns 0x00 (0000ms, 0315ms total)
T068C 000:529 JLINK_WriteReg(R13, 0x20000800)  returns 0x00 (0000ms, 0315ms total)
T068C 000:529 JLINK_WriteReg(R14, 0x20000001)  returns 0x00 (0000ms, 0315ms total)
T068C 000:529 JLINK_WriteReg(R15, 0x200000F8)  returns 0x00 (0000ms, 0315ms total)
T068C 000:529 JLINK_WriteReg(XPSR, 0x01000000)  returns 0x00 (0000ms, 0315ms total)
T068C 000:529 JLINK_WriteReg(MSP, 0x20000800)  returns 0x00 (0000ms, 0315ms total)
T068C 000:529 JLINK_WriteReg(PSP, 0x20000800)  returns 0x00 (0000ms, 0315ms total)
T068C 000:529 JLINK_WriteReg(CFBP, 0x00000000)  returns 0x00 (0000ms, 0315ms total)
T068C 000:529 JLINK_SetBPEx(Addr = 0x20000000, Type = 0xFFFFFFF2)  returns 0x00000009 (0000ms, 0315ms total)
T068C 000:529 JLINK_Go() (0005ms, 0320ms total)
T068C 000:534 JLINK_IsHalted()  returns FALSE (0001ms, 0321ms total)
T068C 000:536 JLINK_IsHalted()  returns FALSE (0000ms, 0320ms total)
T068C 000:537 JLINK_IsHalted()  returns FALSE (0001ms, 0321ms total)
T068C 000:539 JLINK_IsHalted()  returns FALSE (0001ms, 0321ms total)
T068C 000:541 JLINK_IsHalted()  returns FALSE (0001ms, 0321ms total)
T068C 000:543 JLINK_IsHalted()  returns FALSE (0000ms, 0320ms total)
T068C 000:544 JLINK_IsHalted()  returns FALSE (0001ms, 0321ms total)
T068C 000:546 JLINK_IsHalted()  returns FALSE (0001ms, 0321ms total)
T068C 000:548 JLINK_IsHalted()  returns FALSE (0001ms, 0321ms total)
T068C 000:550 JLINK_IsHalted()  returns FALSE (0001ms, 0321ms total)
T068C 000:577 JLINK_IsHalted() -- CPU_ReadMem(2 bytes @ 0x20000000)  returns TRUE (0007ms, 0327ms total)
T068C 000:584 JLINK_ReadReg(R15)  returns 0x20000000 (0000ms, 0320ms total)
T068C 000:584 JLINK_ClrBPEx(BPHandle = 0x00000009)  returns 0x00 (0000ms, 0320ms total)
T068C 000:584 JLINK_ReadReg(R0)  returns 0x00000000 (0000ms, 0320ms total)
T068C 000:585 JLINK_WriteReg(R0, 0x00015000)  returns 0x00 (0000ms, 0320ms total)
T068C 000:585 JLINK_WriteReg(R1, 0x00000400)  returns 0x00 (0000ms, 0320ms total)
T068C 000:585 JLINK_WriteReg(R2, 0x000000FF)  returns 0x00 (0000ms, 0320ms total)
T068C 000:585 JLINK_WriteReg(R3, 0x00000000)  returns 0x00 (0000ms, 0320ms total)
T068C 000:585 JLINK_WriteReg(R4, 0x00000000)  returns 0x00 (0000ms, 0320ms total)
T068C 000:585 JLINK_WriteReg(R5, 0x00000000)  returns 0x00 (0000ms, 0320ms total)
T068C 000:585 JLINK_WriteReg(R6, 0x00000000)  returns 0x00 (0000ms, 0320ms total)
T068C 000:585 JLINK_WriteReg(R7, 0x00000000)  returns 0x00 (0000ms, 0320ms total)
T068C 000:585 JLINK_WriteReg(R8, 0x00000000)  returns 0x00 (0000ms, 0320ms total)
T068C 000:585 JLINK_WriteReg(R9, 0x20000270)  returns 0x00 (0000ms, 0320ms total)
T068C 000:585 JLINK_WriteReg(R10, 0x00000000)  returns 0x00 (0000ms, 0320ms total)
T068C 000:585 JLINK_WriteReg(R11, 0x00000000)  returns 0x00 (0000ms, 0320ms total)
T068C 000:585 JLINK_WriteReg(R12, 0x00000000)  returns 0x00 (0000ms, 0320ms total)
T068C 000:585 JLINK_WriteReg(R13, 0x20000800)  returns 0x00 (0000ms, 0320ms total)
T068C 000:585 JLINK_WriteReg(R14, 0x20000001)  returns 0x00 (0000ms, 0320ms total)
T068C 000:585 JLINK_WriteReg(R15, 0x20000204)  returns 0x00 (0000ms, 0320ms total)
T068C 000:585 JLINK_WriteReg(XPSR, 0x01000000)  returns 0x00 (0000ms, 0320ms total)
T068C 000:585 JLINK_WriteReg(MSP, 0x20000800)  returns 0x00 (0000ms, 0320ms total)
T068C 000:585 JLINK_WriteReg(PSP, 0x20000800)  returns 0x00 (0000ms, 0320ms total)
T068C 000:585 JLINK_WriteReg(CFBP, 0x00000000)  returns 0x00 (0000ms, 0320ms total)
T068C 000:585 JLINK_SetBPEx(Addr = 0x20000000, Type = 0xFFFFFFF2)  returns 0x0000000A (0000ms, 0320ms total)
T068C 000:585 JLINK_Go() (0004ms, 0324ms total)
T068C 000:589 JLINK_IsHalted() -- CPU_ReadMem(2 bytes @ 0x20000000)  returns TRUE (0009ms, 0333ms total)
T068C 000:598 JLINK_ReadReg(R15)  returns 0x20000000 (0000ms, 0324ms total)
T068C 000:598 JLINK_ClrBPEx(BPHandle = 0x0000000A)  returns 0x00 (0000ms, 0324ms total)
T068C 000:598 JLINK_ReadReg(R0)  returns 0x00000001 (0000ms, 0324ms total)
T068C 000:598 JLINK_WriteReg(R0, 0x00015000)  returns 0x00 (0000ms, 0324ms total)
T068C 000:598 JLINK_WriteReg(R1, 0x00000400)  returns 0x00 (0000ms, 0324ms total)
T068C 000:598 JLINK_WriteReg(R2, 0x000000FF)  returns 0x00 (0000ms, 0324ms total)
T068C 000:598 JLINK_WriteReg(R3, 0x00000000)  returns 0x00 (0000ms, 0324ms total)
T068C 000:598 JLINK_WriteReg(R4, 0x00000000)  returns 0x00 (0000ms, 0324ms total)
T068C 000:598 JLINK_WriteReg(R5, 0x00000000)  returns 0x00 (0000ms, 0324ms total)
T068C 000:598 JLINK_WriteReg(R6, 0x00000000)  returns 0x00 (0000ms, 0324ms total)
T068C 000:598 JLINK_WriteReg(R7, 0x00000000)  returns 0x00 (0000ms, 0324ms total)
T068C 000:598 JLINK_WriteReg(R8, 0x00000000)  returns 0x00 (0000ms, 0324ms total)
T068C 000:598 JLINK_WriteReg(R9, 0x20000270)  returns 0x00 (0000ms, 0324ms total)
T068C 000:598 JLINK_WriteReg(R10, 0x00000000)  returns 0x00 (0000ms, 0324ms total)
T068C 000:598 JLINK_WriteReg(R11, 0x00000000)  returns 0x00 (0000ms, 0324ms total)
T068C 000:598 JLINK_WriteReg(R12, 0x00000000)  returns 0x00 (0000ms, 0324ms total)
T068C 000:598 JLINK_WriteReg(R13, 0x20000800)  returns 0x00 (0000ms, 0324ms total)
T068C 000:598 JLINK_WriteReg(R14, 0x20000001)  returns 0x00 (0000ms, 0324ms total)
T068C 000:598 JLINK_WriteReg(R15, 0x200000F8)  returns 0x00 (0000ms, 0324ms total)
T068C 000:598 JLINK_WriteReg(XPSR, 0x01000000)  returns 0x00 (0000ms, 0324ms total)
T068C 000:598 JLINK_WriteReg(MSP, 0x20000800)  returns 0x00 (0000ms, 0324ms total)
T068C 000:598 JLINK_WriteReg(PSP, 0x20000800)  returns 0x00 (0000ms, 0324ms total)
T068C 000:598 JLINK_WriteReg(CFBP, 0x00000000)  returns 0x00 (0000ms, 0324ms total)
T068C 000:598 JLINK_SetBPEx(Addr = 0x20000000, Type = 0xFFFFFFF2)  returns 0x0000000B (0000ms, 0324ms total)
T068C 000:598 JLINK_Go() (0004ms, 0328ms total)
T068C 000:602 JLINK_IsHalted()  returns FALSE (0001ms, 0329ms total)
T068C 000:605 JLINK_IsHalted()  returns FALSE (0002ms, 0330ms total)
T068C 000:608 JLINK_IsHalted()  returns FALSE (0001ms, 0329ms total)
T068C 000:610 JLINK_IsHalted()  returns FALSE (0001ms, 0329ms total)
T068C 000:612 JLINK_IsHalted()  returns FALSE (0001ms, 0329ms total)
T068C 000:614 JLINK_IsHalted()  returns FALSE (0001ms, 0329ms total)
T068C 000:616 JLINK_IsHalted()  returns FALSE (0001ms, 0329ms total)
T068C 000:618 JLINK_IsHalted()  returns FALSE (0001ms, 0329ms total)
T068C 000:620 JLINK_IsHalted()  returns FALSE (0001ms, 0329ms total)
T068C 000:622 JLINK_IsHalted() -- CPU_ReadMem(2 bytes @ 0x20000000)  returns TRUE (0007ms, 0335ms total)
T068C 000:629 JLINK_ReadReg(R15)  returns 0x20000000 (0000ms, 0328ms total)
T068C 000:629 JLINK_ClrBPEx(BPHandle = 0x0000000B)  returns 0x00 (0000ms, 0328ms total)
T068C 000:629 JLINK_ReadReg(R0)  returns 0x00000000 (0000ms, 0328ms total)
T068C 000:630 JLINK_WriteReg(R0, 0x00015400)  returns 0x00 (0000ms, 0328ms total)
T068C 000:630 JLINK_WriteReg(R1, 0x00000400)  returns 0x00 (0000ms, 0328ms total)
T068C 000:630 JLINK_WriteReg(R2, 0x000000FF)  returns 0x00 (0000ms, 0328ms total)
T068C 000:630 JLINK_WriteReg(R3, 0x00000000)  returns 0x00 (0000ms, 0328ms total)
T068C 000:630 JLINK_WriteReg(R4, 0x00000000)  returns 0x00 (0000ms, 0328ms total)
T068C 000:630 JLINK_WriteReg(R5, 0x00000000)  returns 0x00 (0000ms, 0328ms total)
T068C 000:630 JLINK_WriteReg(R6, 0x00000000)  returns 0x00 (0000ms, 0328ms total)
T068C 000:630 JLINK_WriteReg(R7, 0x00000000)  returns 0x00 (0000ms, 0328ms total)
T068C 000:630 JLINK_WriteReg(R8, 0x00000000)  returns 0x00 (0000ms, 0328ms total)
T068C 000:630 JLINK_WriteReg(R9, 0x20000270)  returns 0x00 (0000ms, 0328ms total)
T068C 000:630 JLINK_WriteReg(R10, 0x00000000)  returns 0x00 (0000ms, 0328ms total)
T068C 000:630 JLINK_WriteReg(R11, 0x00000000)  returns 0x00 (0000ms, 0328ms total)
T068C 000:630 JLINK_WriteReg(R12, 0x00000000)  returns 0x00 (0000ms, 0328ms total)
T068C 000:630 JLINK_WriteReg(R13, 0x20000800)  returns 0x00 (0000ms, 0328ms total)
T068C 000:630 JLINK_WriteReg(R14, 0x20000001)  returns 0x00 (0000ms, 0328ms total)
T068C 000:630 JLINK_WriteReg(R15, 0x20000204)  returns 0x00 (0000ms, 0328ms total)
T068C 000:630 JLINK_WriteReg(XPSR, 0x01000000)  returns 0x00 (0000ms, 0328ms total)
T068C 000:630 JLINK_WriteReg(MSP, 0x20000800)  returns 0x00 (0000ms, 0328ms total)
T068C 000:630 JLINK_WriteReg(PSP, 0x20000800)  returns 0x00 (0000ms, 0328ms total)
T068C 000:630 JLINK_WriteReg(CFBP, 0x00000000)  returns 0x00 (0000ms, 0328ms total)
T068C 000:630 JLINK_SetBPEx(Addr = 0x20000000, Type = 0xFFFFFFF2)  returns 0x0000000C (0000ms, 0328ms total)
T068C 000:630 JLINK_Go() (0004ms, 0332ms total)
T068C 000:634 JLINK_IsHalted() -- CPU_ReadMem(2 bytes @ 0x20000000)  returns TRUE (0007ms, 0339ms total)
T068C 000:641 JLINK_ReadReg(R15)  returns 0x20000000 (0000ms, 0332ms total)
T068C 000:641 JLINK_ClrBPEx(BPHandle = 0x0000000C)  returns 0x00 (0000ms, 0332ms total)
T068C 000:641 JLINK_ReadReg(R0)  returns 0x00000001 (0000ms, 0332ms total)
T068C 000:641 JLINK_WriteReg(R0, 0x00015400)  returns 0x00 (0000ms, 0332ms total)
T068C 000:641 JLINK_WriteReg(R1, 0x00000400)  returns 0x00 (0000ms, 0332ms total)
T068C 000:641 JLINK_WriteReg(R2, 0x000000FF)  returns 0x00 (0000ms, 0332ms total)
T068C 000:641 JLINK_WriteReg(R3, 0x00000000)  returns 0x00 (0000ms, 0332ms total)
T068C 000:641 JLINK_WriteReg(R4, 0x00000000)  returns 0x00 (0000ms, 0332ms total)
T068C 000:641 JLINK_WriteReg(R5, 0x00000000)  returns 0x00 (0000ms, 0332ms total)
T068C 000:641 JLINK_WriteReg(R6, 0x00000000)  returns 0x00 (0000ms, 0332ms total)
T068C 000:641 JLINK_WriteReg(R7, 0x00000000)  returns 0x00 (0000ms, 0332ms total)
T068C 000:641 JLINK_WriteReg(R8, 0x00000000)  returns 0x00 (0000ms, 0332ms total)
T068C 000:641 JLINK_WriteReg(R9, 0x20000270)  returns 0x00 (0000ms, 0332ms total)
T068C 000:641 JLINK_WriteReg(R10, 0x00000000)  returns 0x00 (0000ms, 0332ms total)
T068C 000:641 JLINK_WriteReg(R11, 0x00000000)  returns 0x00 (0000ms, 0332ms total)
T068C 000:641 JLINK_WriteReg(R12, 0x00000000)  returns 0x00 (0000ms, 0332ms total)
T068C 000:641 JLINK_WriteReg(R13, 0x20000800)  returns 0x00 (0000ms, 0332ms total)
T068C 000:641 JLINK_WriteReg(R14, 0x20000001)  returns 0x00 (0000ms, 0332ms total)
T068C 000:641 JLINK_WriteReg(R15, 0x200000F8)  returns 0x00 (0000ms, 0332ms total)
T068C 000:641 JLINK_WriteReg(XPSR, 0x01000000)  returns 0x00 (0000ms, 0332ms total)
T068C 000:641 JLINK_WriteReg(MSP, 0x20000800)  returns 0x00 (0000ms, 0332ms total)
T068C 000:641 JLINK_WriteReg(PSP, 0x20000800)  returns 0x00 (0000ms, 0332ms total)
T068C 000:641 JLINK_WriteReg(CFBP, 0x00000000)  returns 0x00 (0000ms, 0332ms total)
T068C 000:641 JLINK_SetBPEx(Addr = 0x20000000, Type = 0xFFFFFFF2)  returns 0x0000000D (0000ms, 0332ms total)
T068C 000:641 JLINK_Go() (0005ms, 0337ms total)
T068C 000:646 JLINK_IsHalted()  returns FALSE (0001ms, 0338ms total)
T068C 000:650 JLINK_IsHalted()  returns FALSE (0001ms, 0338ms total)
T068C 000:652 JLINK_IsHalted()  returns FALSE (0002ms, 0339ms total)
T068C 000:655 JLINK_IsHalted()  returns FALSE (0001ms, 0338ms total)
T068C 000:657 JLINK_IsHalted()  returns FALSE (0002ms, 0339ms total)
T068C 000:680 JLINK_IsHalted() -- CPU_ReadMem(2 bytes @ 0x20000000)  returns TRUE (0007ms, 0344ms total)
T068C 000:687 JLINK_ReadReg(R15)  returns 0x20000000 (0000ms, 0337ms total)
T068C 000:687 JLINK_ClrBPEx(BPHandle = 0x0000000D)  returns 0x00 (0000ms, 0337ms total)
T068C 000:687 JLINK_ReadReg(R0)  returns 0x00000000 (0000ms, 0337ms total)
T068C 000:688 JLINK_WriteReg(R0, 0x00015800)  returns 0x00 (0000ms, 0337ms total)
T068C 000:688 JLINK_WriteReg(R1, 0x00000400)  returns 0x00 (0000ms, 0337ms total)
T068C 000:688 JLINK_WriteReg(R2, 0x000000FF)  returns 0x00 (0000ms, 0337ms total)
T068C 000:688 JLINK_WriteReg(R3, 0x00000000)  returns 0x00 (0000ms, 0337ms total)
T068C 000:688 JLINK_WriteReg(R4, 0x00000000)  returns 0x00 (0000ms, 0337ms total)
T068C 000:688 JLINK_WriteReg(R5, 0x00000000)  returns 0x00 (0000ms, 0337ms total)
T068C 000:688 JLINK_WriteReg(R6, 0x00000000)  returns 0x00 (0000ms, 0337ms total)
T068C 000:688 JLINK_WriteReg(R7, 0x00000000)  returns 0x00 (0000ms, 0337ms total)
T068C 000:688 JLINK_WriteReg(R8, 0x00000000)  returns 0x00 (0000ms, 0337ms total)
T068C 000:688 JLINK_WriteReg(R9, 0x20000270)  returns 0x00 (0000ms, 0337ms total)
T068C 000:688 JLINK_WriteReg(R10, 0x00000000)  returns 0x00 (0000ms, 0337ms total)
T068C 000:688 JLINK_WriteReg(R11, 0x00000000)  returns 0x00 (0000ms, 0337ms total)
T068C 000:688 JLINK_WriteReg(R12, 0x00000000)  returns 0x00 (0000ms, 0337ms total)
T068C 000:688 JLINK_WriteReg(R13, 0x20000800)  returns 0x00 (0000ms, 0337ms total)
T068C 000:688 JLINK_WriteReg(R14, 0x20000001)  returns 0x00 (0000ms, 0337ms total)
T068C 000:688 JLINK_WriteReg(R15, 0x20000204)  returns 0x00 (0000ms, 0337ms total)
T068C 000:688 JLINK_WriteReg(XPSR, 0x01000000)  returns 0x00 (0000ms, 0337ms total)
T068C 000:688 JLINK_WriteReg(MSP, 0x20000800)  returns 0x00 (0000ms, 0337ms total)
T068C 000:688 JLINK_WriteReg(PSP, 0x20000800)  returns 0x00 (0000ms, 0337ms total)
T068C 000:688 JLINK_WriteReg(CFBP, 0x00000000)  returns 0x00 (0000ms, 0337ms total)
T068C 000:688 JLINK_SetBPEx(Addr = 0x20000000, Type = 0xFFFFFFF2)  returns 0x0000000E (0000ms, 0337ms total)
T068C 000:688 JLINK_Go() (0005ms, 0342ms total)
T068C 000:693 JLINK_IsHalted() -- CPU_ReadMem(2 bytes @ 0x20000000)  returns TRUE (0007ms, 0349ms total)
T068C 000:700 JLINK_ReadReg(R15)  returns 0x20000000 (0000ms, 0342ms total)
T068C 000:700 JLINK_ClrBPEx(BPHandle = 0x0000000E)  returns 0x00 (0000ms, 0342ms total)
T068C 000:700 JLINK_ReadReg(R0)  returns 0x00000001 (0000ms, 0342ms total)
T068C 000:700 JLINK_WriteReg(R0, 0x00015800)  returns 0x00 (0000ms, 0342ms total)
T068C 000:700 JLINK_WriteReg(R1, 0x00000400)  returns 0x00 (0000ms, 0342ms total)
T068C 000:700 JLINK_WriteReg(R2, 0x000000FF)  returns 0x00 (0000ms, 0342ms total)
T068C 000:700 JLINK_WriteReg(R3, 0x00000000)  returns 0x00 (0000ms, 0342ms total)
T068C 000:700 JLINK_WriteReg(R4, 0x00000000)  returns 0x00 (0000ms, 0342ms total)
T068C 000:700 JLINK_WriteReg(R5, 0x00000000)  returns 0x00 (0000ms, 0342ms total)
T068C 000:700 JLINK_WriteReg(R6, 0x00000000)  returns 0x00 (0000ms, 0342ms total)
T068C 000:700 JLINK_WriteReg(R7, 0x00000000)  returns 0x00 (0000ms, 0342ms total)
T068C 000:700 JLINK_WriteReg(R8, 0x00000000)  returns 0x00 (0000ms, 0342ms total)
T068C 000:700 JLINK_WriteReg(R9, 0x20000270)  returns 0x00 (0000ms, 0342ms total)
T068C 000:700 JLINK_WriteReg(R10, 0x00000000)  returns 0x00 (0000ms, 0342ms total)
T068C 000:700 JLINK_WriteReg(R11, 0x00000000)  returns 0x00 (0000ms, 0342ms total)
T068C 000:700 JLINK_WriteReg(R12, 0x00000000)  returns 0x00 (0000ms, 0342ms total)
T068C 000:700 JLINK_WriteReg(R13, 0x20000800)  returns 0x00 (0000ms, 0342ms total)
T068C 000:700 JLINK_WriteReg(R14, 0x20000001)  returns 0x00 (0000ms, 0342ms total)
T068C 000:700 JLINK_WriteReg(R15, 0x200000F8)  returns 0x00 (0000ms, 0342ms total)
T068C 000:700 JLINK_WriteReg(XPSR, 0x01000000)  returns 0x00 (0000ms, 0342ms total)
T068C 000:700 JLINK_WriteReg(MSP, 0x20000800)  returns 0x00 (0000ms, 0342ms total)
T068C 000:700 JLINK_WriteReg(PSP, 0x20000800)  returns 0x00 (0000ms, 0342ms total)
T068C 000:700 JLINK_WriteReg(CFBP, 0x00000000)  returns 0x00 (0000ms, 0342ms total)
T068C 000:700 JLINK_SetBPEx(Addr = 0x20000000, Type = 0xFFFFFFF2)  returns 0x0000000F (0000ms, 0342ms total)
T068C 000:700 JLINK_Go() (0004ms, 0346ms total)
T068C 000:704 JLINK_IsHalted()  returns FALSE (0001ms, 0347ms total)
T068C 000:706 JLINK_IsHalted()  returns FALSE (0001ms, 0347ms total)
T068C 000:708 JLINK_IsHalted()  returns FALSE (0001ms, 0347ms total)
T068C 000:710 JLINK_IsHalted()  returns FALSE (0000ms, 0346ms total)
T068C 000:711 JLINK_IsHalted()  returns FALSE (0001ms, 0347ms total)
T068C 000:713 JLINK_IsHalted()  returns FALSE (0001ms, 0347ms total)
T068C 000:715 JLINK_IsHalted()  returns FALSE (0001ms, 0347ms total)
T068C 000:717 JLINK_IsHalted()  returns FALSE (0001ms, 0347ms total)
T068C 000:719 JLINK_IsHalted()  returns FALSE (0002ms, 0348ms total)
T068C 000:725 JLINK_IsHalted() -- CPU_ReadMem(2 bytes @ 0x20000000)  returns TRUE (0007ms, 0353ms total)
T068C 000:732 JLINK_ReadReg(R15)  returns 0x20000000 (0000ms, 0346ms total)
T068C 000:732 JLINK_ClrBPEx(BPHandle = 0x0000000F)  returns 0x00 (0000ms, 0346ms total)
T068C 000:732 JLINK_ReadReg(R0)  returns 0x00000000 (0000ms, 0346ms total)
T068C 000:733 JLINK_WriteReg(R0, 0x00015C00)  returns 0x00 (0000ms, 0346ms total)
T068C 000:733 JLINK_WriteReg(R1, 0x00000400)  returns 0x00 (0000ms, 0346ms total)
T068C 000:733 JLINK_WriteReg(R2, 0x000000FF)  returns 0x00 (0000ms, 0346ms total)
T068C 000:733 JLINK_WriteReg(R3, 0x00000000)  returns 0x00 (0000ms, 0346ms total)
T068C 000:733 JLINK_WriteReg(R4, 0x00000000)  returns 0x00 (0000ms, 0346ms total)
T068C 000:733 JLINK_WriteReg(R5, 0x00000000)  returns 0x00 (0000ms, 0346ms total)
T068C 000:733 JLINK_WriteReg(R6, 0x00000000)  returns 0x00 (0000ms, 0346ms total)
T068C 000:733 JLINK_WriteReg(R7, 0x00000000)  returns 0x00 (0000ms, 0346ms total)
T068C 000:733 JLINK_WriteReg(R8, 0x00000000)  returns 0x00 (0000ms, 0346ms total)
T068C 000:733 JLINK_WriteReg(R9, 0x20000270)  returns 0x00 (0000ms, 0346ms total)
T068C 000:733 JLINK_WriteReg(R10, 0x00000000)  returns 0x00 (0000ms, 0346ms total)
T068C 000:733 JLINK_WriteReg(R11, 0x00000000)  returns 0x00 (0000ms, 0346ms total)
T068C 000:733 JLINK_WriteReg(R12, 0x00000000)  returns 0x00 (0000ms, 0346ms total)
T068C 000:733 JLINK_WriteReg(R13, 0x20000800)  returns 0x00 (0000ms, 0346ms total)
T068C 000:733 JLINK_WriteReg(R14, 0x20000001)  returns 0x00 (0000ms, 0346ms total)
T068C 000:733 JLINK_WriteReg(R15, 0x20000204)  returns 0x00 (0000ms, 0346ms total)
T068C 000:733 JLINK_WriteReg(XPSR, 0x01000000)  returns 0x00 (0000ms, 0346ms total)
T068C 000:733 JLINK_WriteReg(MSP, 0x20000800)  returns 0x00 (0000ms, 0346ms total)
T068C 000:733 JLINK_WriteReg(PSP, 0x20000800)  returns 0x00 (0000ms, 0346ms total)
T068C 000:733 JLINK_WriteReg(CFBP, 0x00000000)  returns 0x00 (0000ms, 0346ms total)
T068C 000:733 JLINK_SetBPEx(Addr = 0x20000000, Type = 0xFFFFFFF2)  returns 0x00000010 (0000ms, 0346ms total)
T068C 000:733 JLINK_Go() (0004ms, 0350ms total)
T068C 000:737 JLINK_IsHalted() -- CPU_ReadMem(2 bytes @ 0x20000000)  returns TRUE (0007ms, 0357ms total)
T068C 000:744 JLINK_ReadReg(R15)  returns 0x20000000 (0000ms, 0350ms total)
T068C 000:744 JLINK_ClrBPEx(BPHandle = 0x00000010)  returns 0x00 (0000ms, 0350ms total)
T068C 000:744 JLINK_ReadReg(R0)  returns 0x00000001 (0000ms, 0350ms total)
T068C 000:744 JLINK_WriteReg(R0, 0x00015C00)  returns 0x00 (0000ms, 0350ms total)
T068C 000:744 JLINK_WriteReg(R1, 0x00000400)  returns 0x00 (0000ms, 0350ms total)
T068C 000:744 JLINK_WriteReg(R2, 0x000000FF)  returns 0x00 (0000ms, 0350ms total)
T068C 000:744 JLINK_WriteReg(R3, 0x00000000)  returns 0x00 (0000ms, 0350ms total)
T068C 000:744 JLINK_WriteReg(R4, 0x00000000)  returns 0x00 (0000ms, 0350ms total)
T068C 000:744 JLINK_WriteReg(R5, 0x00000000)  returns 0x00 (0000ms, 0350ms total)
T068C 000:744 JLINK_WriteReg(R6, 0x00000000)  returns 0x00 (0000ms, 0350ms total)
T068C 000:744 JLINK_WriteReg(R7, 0x00000000)  returns 0x00 (0000ms, 0350ms total)
T068C 000:744 JLINK_WriteReg(R8, 0x00000000)  returns 0x00 (0000ms, 0350ms total)
T068C 000:744 JLINK_WriteReg(R9, 0x20000270)  returns 0x00 (0000ms, 0350ms total)
T068C 000:744 JLINK_WriteReg(R10, 0x00000000)  returns 0x00 (0000ms, 0350ms total)
T068C 000:744 JLINK_WriteReg(R11, 0x00000000)  returns 0x00 (0000ms, 0350ms total)
T068C 000:744 JLINK_WriteReg(R12, 0x00000000)  returns 0x00 (0000ms, 0350ms total)
T068C 000:744 JLINK_WriteReg(R13, 0x20000800)  returns 0x00 (0000ms, 0350ms total)
T068C 000:744 JLINK_WriteReg(R14, 0x20000001)  returns 0x00 (0000ms, 0350ms total)
T068C 000:744 JLINK_WriteReg(R15, 0x200000F8)  returns 0x00 (0000ms, 0350ms total)
T068C 000:744 JLINK_WriteReg(XPSR, 0x01000000)  returns 0x00 (0000ms, 0350ms total)
T068C 000:744 JLINK_WriteReg(MSP, 0x20000800)  returns 0x00 (0000ms, 0350ms total)
T068C 000:744 JLINK_WriteReg(PSP, 0x20000800)  returns 0x00 (0000ms, 0350ms total)
T068C 000:744 JLINK_WriteReg(CFBP, 0x00000000)  returns 0x00 (0000ms, 0350ms total)
T068C 000:744 JLINK_SetBPEx(Addr = 0x20000000, Type = 0xFFFFFFF2)  returns 0x00000011 (0000ms, 0350ms total)
T068C 000:744 JLINK_Go() (0003ms, 0353ms total)
T068C 000:747 JLINK_IsHalted()  returns FALSE (0001ms, 0354ms total)
T068C 000:749 JLINK_IsHalted()  returns FALSE (0001ms, 0354ms total)
T068C 000:751 JLINK_IsHalted()  returns FALSE (0001ms, 0354ms total)
T068C 000:753 JLINK_IsHalted()  returns FALSE (0001ms, 0354ms total)
T068C 000:755 JLINK_IsHalted()  returns FALSE (0003ms, 0356ms total)
T068C 000:759 JLINK_IsHalted()  returns FALSE (0001ms, 0354ms total)
T068C 000:761 JLINK_IsHalted()  returns FALSE (0001ms, 0354ms total)
T068C 000:763 JLINK_IsHalted()  returns FALSE (0001ms, 0354ms total)
T068C 000:765 JLINK_IsHalted()  returns FALSE (0001ms, 0354ms total)
T068C 000:798 JLINK_IsHalted() -- CPU_ReadMem(2 bytes @ 0x20000000)  returns TRUE (0008ms, 0361ms total)
T068C 000:806 JLINK_ReadReg(R15)  returns 0x20000000 (0000ms, 0353ms total)
T068C 000:806 JLINK_ClrBPEx(BPHandle = 0x00000011)  returns 0x00 (0000ms, 0353ms total)
T068C 000:806 JLINK_ReadReg(R0)  returns 0x00000000 (0000ms, 0353ms total)
T068C 000:806 JLINK_WriteReg(R0, 0x00016000)  returns 0x00 (0000ms, 0353ms total)
T068C 000:806 JLINK_WriteReg(R1, 0x00000400)  returns 0x00 (0000ms, 0353ms total)
T068C 000:806 JLINK_WriteReg(R2, 0x000000FF)  returns 0x00 (0000ms, 0353ms total)
T068C 000:806 JLINK_WriteReg(R3, 0x00000000)  returns 0x00 (0000ms, 0353ms total)
T068C 000:806 JLINK_WriteReg(R4, 0x00000000)  returns 0x00 (0000ms, 0353ms total)
T068C 000:806 JLINK_WriteReg(R5, 0x00000000)  returns 0x00 (0000ms, 0353ms total)
T068C 000:806 JLINK_WriteReg(R6, 0x00000000)  returns 0x00 (0000ms, 0353ms total)
T068C 000:806 JLINK_WriteReg(R7, 0x00000000)  returns 0x00 (0000ms, 0353ms total)
T068C 000:806 JLINK_WriteReg(R8, 0x00000000)  returns 0x00 (0000ms, 0353ms total)
T068C 000:806 JLINK_WriteReg(R9, 0x20000270)  returns 0x00 (0000ms, 0353ms total)
T068C 000:806 JLINK_WriteReg(R10, 0x00000000)  returns 0x00 (0000ms, 0353ms total)
T068C 000:806 JLINK_WriteReg(R11, 0x00000000)  returns 0x00 (0000ms, 0353ms total)
T068C 000:806 JLINK_WriteReg(R12, 0x00000000)  returns 0x00 (0000ms, 0353ms total)
T068C 000:806 JLINK_WriteReg(R13, 0x20000800)  returns 0x00 (0000ms, 0353ms total)
T068C 000:806 JLINK_WriteReg(R14, 0x20000001)  returns 0x00 (0000ms, 0353ms total)
T068C 000:806 JLINK_WriteReg(R15, 0x20000204)  returns 0x00 (0000ms, 0353ms total)
T068C 000:806 JLINK_WriteReg(XPSR, 0x01000000)  returns 0x00 (0000ms, 0353ms total)
T068C 000:806 JLINK_WriteReg(MSP, 0x20000800)  returns 0x00 (0000ms, 0353ms total)
T068C 000:806 JLINK_WriteReg(PSP, 0x20000800)  returns 0x00 (0000ms, 0353ms total)
T068C 000:806 JLINK_WriteReg(CFBP, 0x00000000)  returns 0x00 (0000ms, 0353ms total)
T068C 000:806 JLINK_SetBPEx(Addr = 0x20000000, Type = 0xFFFFFFF2)  returns 0x00000012 (0000ms, 0353ms total)
T068C 000:806 JLINK_Go() (0005ms, 0358ms total)
T068C 000:811 JLINK_IsHalted() -- CPU_ReadMem(2 bytes @ 0x20000000)  returns TRUE (0008ms, 0366ms total)
T068C 000:819 JLINK_ReadReg(R15)  returns 0x20000000 (0000ms, 0358ms total)
T068C 000:819 JLINK_ClrBPEx(BPHandle = 0x00000012)  returns 0x00 (0000ms, 0358ms total)
T068C 000:819 JLINK_ReadReg(R0)  returns 0x00000001 (0000ms, 0358ms total)
T068C 000:819 JLINK_WriteReg(R0, 0x00016000)  returns 0x00 (0000ms, 0358ms total)
T068C 000:819 JLINK_WriteReg(R1, 0x00000400)  returns 0x00 (0000ms, 0358ms total)
T068C 000:819 JLINK_WriteReg(R2, 0x000000FF)  returns 0x00 (0000ms, 0358ms total)
T068C 000:819 JLINK_WriteReg(R3, 0x00000000)  returns 0x00 (0000ms, 0358ms total)
T068C 000:819 JLINK_WriteReg(R4, 0x00000000)  returns 0x00 (0000ms, 0358ms total)
T068C 000:819 JLINK_WriteReg(R5, 0x00000000)  returns 0x00 (0000ms, 0358ms total)
T068C 000:819 JLINK_WriteReg(R6, 0x00000000)  returns 0x00 (0000ms, 0358ms total)
T068C 000:819 JLINK_WriteReg(R7, 0x00000000)  returns 0x00 (0000ms, 0358ms total)
T068C 000:819 JLINK_WriteReg(R8, 0x00000000)  returns 0x00 (0000ms, 0358ms total)
